! Rohde & Schwarz Vector Network Analyzer
! Rohde-Schwarz,ZNB8-4Port,1334333044101560,3.72
! 
! Port Assignments:
! Nominal Port -> Actual Test Port
! --------------------------------
!   1 -> 1
!   2 -> 2

! Created: GMT 2024-12-03 15:21:24

# Hz S DB R 50

! freq[Hz]               S11[mag dB]              S11[ang]                 S21[mag dB]              S21[ang]                 S12[mag dB]              S12[ang]                 S22[mag dB]              S22[ang]                 
1.000000000000000e+08    -2.092499680514331e+01   1.299328640081444e+02    -2.158537321427430e-02   -1.058508782303477e+02   -1.883962384910376e-02   -1.058601993197561e+02   -1.965406790836360e+01   -1.628105622468879e+02   
1.010000000000000e+08    -2.084815306278820e+01   1.286607058456712e+02    -2.267112842451724e-02   -1.069113915688523e+02   -2.044964886821760e-02   -1.069204027413169e+02   -1.958700851586363e+01   -1.637428884235251e+02   
1.020000000000000e+08    -2.074719022398589e+01   1.273528395271782e+02    -2.522870307849297e-02   -1.079504562220835e+02   -2.411110817112808e-02   -1.079760585366873e+02   -1.952980252138298e+01   -1.647603147199810e+02   
1.030000000000000e+08    -2.065217598176243e+01   1.259339363885590e+02    -2.793586180969284e-02   -1.090186641564081e+02   -2.589742395800089e-02   -1.090365731542153e+02   -1.944699202461312e+01   -1.659379046315811e+02   
1.040000000000000e+08    -2.056232857482099e+01   1.248144339849052e+02    -3.039747815198347e-02   -1.100650151435993e+02   -2.601976161523501e-02   -1.101078935194217e+02   -1.937392144758392e+01   -1.669562083689618e+02   
1.050000000000000e+08    -2.046800758925353e+01   1.235998175121702e+02    -3.053541166349550e-02   -1.111336319659806e+02   -2.871648592921399e-02   -1.111473356618752e+02   -1.929710535920765e+01   -1.680051631238543e+02   
1.060000000000000e+08    -2.039091321329337e+01   1.221364523716908e+02    -3.662482110926250e-02   -1.121860994168076e+02   -3.196394127206144e-02   -1.121878826289215e+02   -1.924896907956509e+01   -1.690697424731401e+02   
1.070000000000000e+08    -2.029596266616734e+01   1.210016250785104e+02    -3.720050074304235e-02   -1.132454808331417e+02   -3.429052036736699e-02   -1.132546011945585e+02   -1.918096812950827e+01   -1.700487459280769e+02   
1.080000000000000e+08    -2.022221655678332e+01   1.197769407977827e+02    -3.835499969578460e-02   -1.143037335733794e+02   -3.611527371872410e-02   -1.143035579776442e+02   -1.912006021089612e+01   -1.710953133652307e+02   
1.090000000000000e+08    -2.015366667170397e+01   1.186536587834567e+02    -4.067340287781843e-02   -1.153526880212470e+02   -3.729826212618119e-02   -1.153703590209733e+02   -1.902817656400070e+01   -1.722052449186874e+02   
1.100000000000000e+08    -2.003453518164599e+01   1.173269790638836e+02    -4.000195213180653e-02   -1.164186541666291e+02   -3.981248235927019e-02   -1.164237875216194e+02   -1.898635839312077e+01   -1.730872979769159e+02   
1.110000000000000e+08    -1.995603041734151e+01   1.161516166176384e+02    -4.449297089424085e-02   -1.174705185661219e+02   -4.204772716244305e-02   -1.174822203944376e+02   -1.892070288834573e+01   -1.741477733052641e+02   
1.120000000000000e+08    -1.989824120874512e+01   1.147556515400414e+02    -4.660340316223884e-02   -1.185362826576780e+02   -4.274476404402243e-02   -1.185364895884170e+02   -1.887177285421080e+01   -1.752555784302759e+02   
1.130000000000000e+08    -1.982448777559894e+01   1.135054737140634e+02    -4.740610802840088e-02   -1.195775393729151e+02   -4.618290173524386e-02   -1.195912421992188e+02   -1.882534753957137e+01   -1.761923369444486e+02   
1.140000000000000e+08    -1.975823681193111e+01   1.124782416777290e+02    -4.782586517562502e-02   -1.206373999030684e+02   -4.585162744957073e-02   -1.206487424004771e+02   -1.876701514106728e+01   -1.773428520105659e+02   
1.150000000000000e+08    -1.968314862511851e+01   1.110390153628729e+02    -5.236894041955900e-02   -1.216971827866546e+02   -4.889278405557188e-02   -1.217064218564828e+02   -1.870617540729688e+01   -1.783854919035985e+02   
1.160000000000000e+08    -1.959721082117078e+01   1.098752110718925e+02    -5.209713104781875e-02   -1.227503666858333e+02   -4.942141720505327e-02   -1.227659511143623e+02   -1.864797933664070e+01   -1.793741629765451e+02   
1.170000000000000e+08    -1.953508420270208e+01   1.086468306804347e+02    -5.458799907569534e-02   -1.238052903783953e+02   -5.235364701974650e-02   -1.238210151887207e+02   -1.860999086886343e+01   1.795988657474501e+02    
1.180000000000000e+08    -1.948074243002790e+01   1.074860448888045e+02    -5.806796456890083e-02   -1.248543426435659e+02   -5.322813527073525e-02   -1.248637829069300e+02   -1.855403604576934e+01   1.786670447892668e+02    
1.190000000000000e+08    -1.938880476705088e+01   1.061633171482666e+02    -5.933620812673796e-02   -1.259181875369014e+02   -5.659650860646220e-02   -1.259288411306212e+02   -1.850168052962243e+01   1.775561461880264e+02    
1.200000000000000e+08    -1.933792427805763e+01   1.048590883463408e+02    -6.331135159370690e-02   -1.269686736248467e+02   -5.756453887007262e-02   -1.269823053417499e+02   -1.846836643748008e+01   1.765401964409286e+02    
1.210000000000000e+08    -1.929008895633251e+01   1.037269091199544e+02    -6.483520363308337e-02   -1.280256529509274e+02   -6.012370288474401e-02   -1.280468246114623e+02   -1.842837840797249e+01   1.754565828038054e+02    
1.220000000000000e+08    -1.921505865353113e+01   1.026958248429431e+02    -6.505583618600554e-02   -1.290863736885410e+02   -6.157708829007517e-02   -1.290911850736380e+02   -1.837100516128335e+01   1.743918923000153e+02    
1.230000000000000e+08    -1.917574557840102e+01   1.015611532379599e+02    -6.782347530912057e-02   -1.301405055863707e+02   -6.473819610847009e-02   -1.301542756546070e+02   -1.832882285459263e+01   1.734168429535804e+02    
1.240000000000000e+08    -1.911348477456173e+01   1.001232021471065e+02    -6.787687438212084e-02   -1.311914438420328e+02   -6.591684994070734e-02   -1.312183869267569e+02   -1.830856581803531e+01   1.724328356361256e+02    
1.250000000000000e+08    -1.903243074242788e+01   9.896139257265732e+01    -6.895775544271068e-02   -1.322531721094774e+02   -6.555217388539944e-02   -1.322586489772300e+02   -1.824660811147790e+01   1.713070309150916e+02    
1.260000000000000e+08    -1.899890819060807e+01   9.778519081147984e+01    -7.281993813417961e-02   -1.333058149714594e+02   -6.787755652496059e-02   -1.333274609065241e+02   -1.823220485127902e+01   1.702569810815534e+02    
1.270000000000000e+08    -1.892060730622054e+01   9.666112518873253e+01    -7.342623129221729e-02   -1.343740422847230e+02   -7.096245683203116e-02   -1.343914779057226e+02   -1.818033975039531e+01   1.691650177253925e+02    
1.280000000000000e+08    -1.888764092752427e+01   9.542443134124399e+01    -7.396439089759109e-02   -1.354217848473731e+02   -7.240230337907752e-02   -1.354363994612090e+02   -1.814281511263007e+01   1.681849853370135e+02    
1.290000000000000e+08    -1.883853818521290e+01   9.424765927785926e+01    -7.674368532159917e-02   -1.364865878029662e+02   -7.623014127845025e-02   -1.365022134365199e+02   -1.810338148165173e+01   1.671704562003245e+02    
1.300000000000000e+08    -1.876932652126981e+01   9.305310557303874e+01    -7.682741333357948e-02   -1.375274334715408e+02   -7.484575068061804e-02   -1.375799390914039e+02   -1.808386583202184e+01   1.661395141733451e+02    
1.310000000000000e+08    -1.873325624162166e+01   9.189718873509177e+01    -8.078361928357400e-02   -1.386041992259032e+02   -7.926748526537457e-02   -1.386044647600793e+02   -1.805576143148091e+01   1.650131955805764e+02    
1.320000000000000e+08    -1.868317958682647e+01   9.070966553066718e+01    -8.294552980714429e-02   -1.396635386925232e+02   -7.920588936489259e-02   -1.396761325586280e+02   -1.802075801581378e+01   1.639782972262880e+02    
1.330000000000000e+08    -1.863333911647834e+01   8.945716012461232e+01    -8.548969146029624e-02   -1.407124485224516e+02   -8.276786309744488e-02   -1.407349388195369e+02   -1.801388260232504e+01   1.629306111905123e+02    
1.340000000000000e+08    -1.861105766790745e+01   8.840603029965085e+01    -8.635860064064589e-02   -1.417743344927025e+02   -8.337721116153536e-02   -1.418024457607392e+02   -1.799288559279318e+01   1.618521318775669e+02    
1.350000000000000e+08    -1.856005330980200e+01   8.724466488093543e+01    -8.866255255801023e-02   -1.428422270015793e+02   -8.730069942110681e-02   -1.428598624516841e+02   -1.794285557524060e+01   1.608170949165101e+02    
1.360000000000000e+08    -1.854413319802966e+01   8.616029854268938e+01    -9.082396931483271e-02   -1.439118842343202e+02   -8.733562606165543e-02   -1.439286500715125e+02   -1.793711479109318e+01   1.599516628398063e+02    
1.370000000000000e+08    -1.849998739853455e+01   8.502760659016843e+01    -9.499552495892413e-02   -1.449589529419012e+02   -9.036223346527239e-02   -1.449904771309590e+02   -1.792185771693311e+01   1.589562104473915e+02    
1.380000000000000e+08    -1.844849966811299e+01   8.398077303312378e+01    -9.834529793136165e-02   -1.459904709666998e+02   -9.586481315094293e-02   -1.460253309878879e+02   -1.788261820344684e+01   1.580353733002673e+02    
1.390000000000000e+08    -1.836467389621735e+01   8.283369173650841e+01    -9.890550896051856e-02   -1.470436830862269e+02   -9.478661089726156e-02   -1.470628943207188e+02   -1.783159159056424e+01   1.569101084412366e+02    
1.400000000000000e+08    -1.834691322880224e+01   8.155904181618639e+01    -9.880512569873030e-02   -1.481072668901475e+02   -9.646384711654174e-02   -1.481193259147900e+02   -1.781380956237046e+01   1.557361706394704e+02    
1.410000000000000e+08    -1.829379146291676e+01   8.041758759747047e+01    -1.000787203727608e-01   -1.491491189386382e+02   -9.507801368670260e-02   -1.491766232857333e+02   -1.780316301845637e+01   1.546224909145162e+02    
1.420000000000000e+08    -1.827159426962387e+01   7.920364439957450e+01    -1.015021721192070e-01   -1.502179117592296e+02   -9.753805201779600e-02   -1.502324945381286e+02   -1.776780096942100e+01   1.535084607747916e+02    
1.430000000000000e+08    -1.824700643957209e+01   7.794818100714208e+01    -9.977864170054557e-02   -1.512753238968864e+02   -9.841518384672050e-02   -1.512960371309993e+02   -1.775719313765804e+01   1.524817447075110e+02    
1.440000000000000e+08    -1.821207606197903e+01   7.678368850085864e+01    -1.009620108080459e-01   -1.523328026957370e+02   -9.819062110626015e-02   -1.523616735395972e+02   -1.775768674655903e+01   1.513467540300446e+02    
1.450000000000000e+08    -1.818487964734824e+01   7.561513568564909e+01    -1.000779038534982e-01   -1.534010308847186e+02   -9.845932670679813e-02   -1.534265255462680e+02   -1.774438083172715e+01   1.502745742550381e+02    
1.460000000000000e+08    -1.816038238023282e+01   7.450285555704876e+01    -1.016663337122077e-01   -1.544574596454505e+02   -9.904403603674533e-02   -1.544979856345459e+02   -1.773946670588252e+01   1.491785187293956e+02    
1.470000000000000e+08    -1.814233650704129e+01   7.333946554582845e+01    -1.065948562236964e-01   -1.555137573830312e+02   -9.949299485057872e-02   -1.555520506281729e+02   -1.773347213201308e+01   1.480881856781077e+02    
1.480000000000000e+08    -1.812191774977831e+01   7.228309858417262e+01    -1.064024604666530e-01   -1.565951263836419e+02   -1.043754736718473e-01   -1.565973815156737e+02   -1.771635052761928e+01   1.470953174259670e+02    
1.490000000000000e+08    -1.810820409879389e+01   7.101018134408409e+01    -1.070992813659787e-01   -1.576549415123306e+02   -1.014401276022081e-01   -1.576747783482968e+02   -1.773076892747408e+01   1.459543485069107e+02    
1.500000000000000e+08    -1.808959423910672e+01   6.990879557986200e+01    -1.068419962225478e-01   -1.587143160004890e+02   -1.041184859494313e-01   -1.587358218846957e+02   -1.771113691420900e+01   1.448316396625258e+02    
1.510000000000000e+08    -1.806141313996113e+01   6.875474470069067e+01    -1.079883240108177e-01   -1.597828810481992e+02   -1.031768450663334e-01   -1.598035125851705e+02   -1.771955332191125e+01   1.438064637678793e+02    
1.520000000000000e+08    -1.804736981861796e+01   6.764071009114998e+01    -1.104951567859766e-01   -1.608353332638500e+02   -1.051860014834896e-01   -1.608566142141922e+02   -1.771364088500054e+01   1.427410289518885e+02    
1.530000000000000e+08    -1.803954668157919e+01   6.658993438395947e+01    -1.122228668543157e-01   -1.619046143536688e+02   -1.077495387787569e-01   -1.619302262405301e+02   -1.771608456341303e+01   1.416939631106493e+02    
1.540000000000000e+08    -1.801742536483229e+01   6.537803235364910e+01    -1.103561541690818e-01   -1.629596505272212e+02   -1.080312763554995e-01   -1.629936781337538e+02   -1.771994942032186e+01   1.405374905837880e+02    
1.550000000000000e+08    -1.800995160080149e+01   6.424478116035483e+01    -1.142656693375206e-01   -1.640339049988589e+02   -1.091731138795687e-01   -1.640563763228515e+02   -1.772432961877907e+01   1.394840020004182e+02    
1.560000000000000e+08    -1.800261696766868e+01   6.314125012036913e+01    -1.133150847295122e-01   -1.650982825857863e+02   -1.112385057259487e-01   -1.651201803638385e+02   -1.773236719525987e+01   1.383754120634403e+02    
1.570000000000000e+08    -1.799052379027308e+01   6.197325022449522e+01    -1.147501544517787e-01   -1.661683050132738e+02   -1.122813995431966e-01   -1.661897711405855e+02   -1.773093738817605e+01   1.373133573907993e+02    
1.580000000000000e+08    -1.799005867547087e+01   6.086532894216310e+01    -1.143976400404475e-01   -1.672226374605759e+02   -1.108019439793886e-01   -1.672446679680797e+02   -1.773471132480663e+01   1.362393192798784e+02    
1.590000000000000e+08    -1.798410307641782e+01   5.978415106580245e+01    -1.146146762759487e-01   -1.682856151492959e+02   -1.143446229306556e-01   -1.683111866395510e+02   -1.773981415743627e+01   1.350859327010010e+02    
1.600000000000000e+08    -1.798300489967285e+01   5.865681781406973e+01    -1.166727235319185e-01   -1.693644464908786e+02   -1.130052950715407e-01   -1.693738116822241e+02   -1.776129228515444e+01   1.339914714342641e+02    
1.610000000000000e+08    -1.798513542233835e+01   5.756958492087538e+01    -1.191872483914942e-01   -1.704172868714480e+02   -1.139677660244174e-01   -1.704282173118580e+02   -1.777295017689819e+01   1.329564063384578e+02    
1.620000000000000e+08    -1.799425042899277e+01   5.649427362209258e+01    -1.198122250368667e-01   -1.714833214029101e+02   -1.163428304908794e-01   -1.714964579105026e+02   -1.778010511533458e+01   1.318478505959577e+02    
1.630000000000000e+08    -1.798376003395053e+01   5.538465254953426e+01    -1.217870151002644e-01   -1.725571816206390e+02   -1.155854034677530e-01   -1.725886269624036e+02   -1.782214143085015e+01   1.307789266387760e+02    
1.640000000000000e+08    -1.799164197790255e+01   5.422341259227613e+01    -1.219229243885253e-01   -1.736208437263750e+02   -1.180625328560850e-01   -1.736393602386867e+02   -1.781817484579437e+01   1.295528738092883e+02    
1.650000000000000e+08    -1.800503024268406e+01   5.320419737888043e+01    -1.218927091168307e-01   -1.746891696974213e+02   -1.179975304272631e-01   -1.747071620341491e+02   -1.785039828830581e+01   1.285543016713492e+02    
1.660000000000000e+08    -1.800488915194303e+01   5.207078328825880e+01    -1.225499357748891e-01   -1.757628582482500e+02   -1.187773133710412e-01   -1.757715233555898e+02   -1.786870188856879e+01   1.273547426721530e+02    
1.670000000000000e+08    -1.800520797486165e+01   5.097169885936358e+01    -1.247718874140291e-01   -1.768226330285806e+02   -1.171866752751190e-01   -1.768495948659316e+02   -1.788892844051149e+01   1.263022462864489e+02    
1.680000000000000e+08    -1.802220612174458e+01   4.982604220962747e+01    -1.238570208049203e-01   -1.778864932956637e+02   -1.205912803081123e-01   -1.779174238321583e+02   -1.791593843754886e+01   1.251388605911305e+02    
1.690000000000000e+08    -1.803194786675395e+01   4.881150679624879e+01    -1.233031265276444e-01   -1.789707039272056e+02   -1.204389680382995e-01   -1.789824817725247e+02   -1.794747897009558e+01   1.240895724920566e+02    
1.700000000000000e+08    -1.805305538769695e+01   4.774793858652136e+01    -1.236469426398083e-01   1.799679172601282e+02    -1.197312947445817e-01   1.799506114186495e+02    -1.797480212190635e+01   1.229321658173503e+02    
1.710000000000000e+08    -1.807311719960646e+01   4.663795326054552e+01    -1.247581684751388e-01   1.788898141704224e+02    -1.223805842513665e-01   1.788657757665075e+02    -1.800521534035889e+01   1.218441340036103e+02    
1.720000000000000e+08    -1.807529051134894e+01   4.560321811111490e+01    -1.259013828374592e-01   1.778226248595449e+02    -1.205680265968032e-01   1.778118740426593e+02    -1.802897776604814e+01   1.206891191958218e+02    
1.730000000000000e+08    -1.810834940001620e+01   4.444234420905001e+01    -1.270078975487740e-01   1.767658465089376e+02    -1.205809225683782e-01   1.767280303645254e+02    -1.807158352170901e+01   1.195473488753713e+02    
1.740000000000000e+08    -1.812808415967045e+01   4.331516490629394e+01    -1.251158321511253e-01   1.756867152328066e+02    -1.222578197526537e-01   1.756529917314703e+02    -1.809906693699586e+01   1.183624434452410e+02    
1.750000000000000e+08    -1.815820247896471e+01   4.226819955987151e+01    -1.265844739822012e-01   1.746141232881454e+02    -1.230325397844012e-01   1.746007022635987e+02    -1.813723304403996e+01   1.172536498565019e+02    
1.760000000000000e+08    -1.817981082064783e+01   4.123070583983850e+01    -1.276168912705382e-01   1.735496015175328e+02    -1.231136745071230e-01   1.735065278245506e+02    -1.818976431801336e+01   1.161418640366000e+02    
1.770000000000000e+08    -1.820778890530794e+01   4.016261160014484e+01    -1.263297455326304e-01   1.724683285299015e+02    -1.234259608431740e-01   1.724491791016007e+02    -1.823401378087169e+01   1.149253184607697e+02    
1.780000000000000e+08    -1.824317290970055e+01   3.927326479063242e+01    -1.265829623873523e-01   1.713945080823554e+02    -1.260222224163224e-01   1.713756076862094e+02    -1.826924649840940e+01   1.137815749814170e+02    
1.790000000000000e+08    -1.827315403036971e+01   3.803979918451556e+01    -1.288658730086597e-01   1.703170182747174e+02    -1.260747750908136e-01   1.703008459692015e+02    -1.832872334878593e+01   1.126707621115712e+02    
1.800000000000000e+08    -1.830922392323545e+01   3.692926646792957e+01    -1.299681848153700e-01   1.692411471407705e+02    -1.258250909444823e-01   1.692062392219935e+02    -1.836961553776875e+01   1.115126255293727e+02    
1.810000000000000e+08    -1.834731175814547e+01   3.606319845081138e+01    -1.270224653331080e-01   1.681716368415063e+02    -1.259400001775119e-01   1.681423859247161e+02    -1.841717887774246e+01   1.104228406103923e+02    
1.820000000000000e+08    -1.838679515250913e+01   3.490351559428815e+01    -1.293289219703145e-01   1.671010894071991e+02    -1.266445413190876e-01   1.670692044067580e+02    -1.846507817145041e+01   1.091672031158940e+02    
1.830000000000000e+08    -1.842221701751359e+01   3.387421431336409e+01    -1.279065508537691e-01   1.660189257621887e+02    -1.254050572093493e-01   1.659740445218086e+02    -1.853817516410956e+01   1.079875145348586e+02    
1.840000000000000e+08    -1.847575880055624e+01   3.278434515836646e+01    -1.279208716291151e-01   1.649256105052409e+02    -1.252798131239504e-01   1.649217145332951e+02    -1.859350148088996e+01   1.068368043486407e+02    
1.850000000000000e+08    -1.852019041607835e+01   3.176015303847742e+01    -1.298196084050353e-01   1.638582714012705e+02    -1.287254553323338e-01   1.638293457938555e+02    -1.866080868900487e+01   1.055750468011840e+02    
