! Rohde & Schwarz Vector Network Analyzer
! Rohde-Schwarz,ZNB8-4Port,1334333044101560,3.72
! 
! Port Assignments:
! Nominal Port -> Actual Test Port
! --------------------------------
!   1 -> 1
!   2 -> 2

! Created: GMT 2024-12-03 15:22:23

# Hz S DB R 50

! freq[Hz]               S11[mag dB]              S11[ang]                 S21[mag dB]              S21[ang]                 S12[mag dB]              S12[ang]                 S22[mag dB]              S22[ang]                 
1.000000000000000e+08    -1.963747967031582e+01   1.220164650241842e+02    -2.942558762278651e-02   -1.046412877873952e+02   -2.510221526537646e-02   -1.046482660865460e+02   -1.855485005708922e+01   -1.533911648209332e+02   
1.010000000000000e+08    -1.955317524351626e+01   1.206154459514645e+02    -3.163688186657397e-02   -1.056905982714338e+02   -2.834825203177518e-02   -1.057069741192354e+02   -1.848981681055793e+01   -1.542924671380200e+02   
1.020000000000000e+08    -1.945100226244539e+01   1.192741004937384e+02    -3.447869479980361e-02   -1.067204464287685e+02   -2.992624414149642e-02   -1.067402871645482e+02   -1.841912955968810e+01   -1.551469886115304e+02   
1.030000000000000e+08    -1.936288840226208e+01   1.178957742661740e+02    -3.737948411151028e-02   -1.077570628213566e+02   -3.393872004692935e-02   -1.077978172924739e+02   -1.834884479516073e+01   -1.562008621953280e+02   
1.040000000000000e+08    -1.927913480237223e+01   1.166732706497169e+02    -3.698399455379012e-02   -1.088142450846955e+02   -3.391733425931177e-02   -1.088429580958139e+02   -1.828245945013733e+01   -1.570669668053240e+02   
1.050000000000000e+08    -1.917644021191490e+01   1.153506191260743e+02    -3.903833776272182e-02   -1.098564638238016e+02   -3.755207308655324e-02   -1.098732291183968e+02   -1.819782975217436e+01   -1.580296193840300e+02   
1.060000000000000e+08    -1.910104510305828e+01   1.139140142164638e+02    -4.488956595364248e-02   -1.108994036871489e+02   -4.055284663968349e-02   -1.109121104185173e+02   -1.813638048403523e+01   -1.589124814361752e+02   
1.070000000000000e+08    -1.899105357110265e+01   1.126561580798847e+02    -4.629589757631664e-02   -1.119505858307732e+02   -4.204340617387457e-02   -1.119460627966220e+02   -1.808226849193585e+01   -1.598448578720980e+02   
1.080000000000000e+08    -1.891796908130096e+01   1.112578057344258e+02    -4.639097893402267e-02   -1.129968885695127e+02   -4.418640918278434e-02   -1.130012320505437e+02   -1.801142467556104e+01   -1.608186875536107e+02   
1.090000000000000e+08    -1.885075252924808e+01   1.101164887024209e+02    -5.094384388131146e-02   -1.140316264103083e+02   -4.719562232658966e-02   -1.140372045527656e+02   -1.793669873893613e+01   -1.616992810682022e+02   
1.100000000000000e+08    -1.873400783470471e+01   1.087829526976410e+02    -5.127397811685319e-02   -1.150762166931273e+02   -4.848255783926061e-02   -1.151018156576595e+02   -1.788765506490720e+01   -1.626218209577911e+02   
1.110000000000000e+08    -1.866235460693849e+01   1.075198150073297e+02    -5.471075111801369e-02   -1.161246001354204e+02   -5.144922252747457e-02   -1.161379794373402e+02   -1.783754467516731e+01   -1.635293422194263e+02   
1.120000000000000e+08    -1.859999145167053e+01   1.061442142884636e+02    -5.870367847780459e-02   -1.171811465653072e+02   -5.156802167266828e-02   -1.171760171744543e+02   -1.777400620153538e+01   -1.644578158306142e+02   
1.130000000000000e+08    -1.852049499182857e+01   1.048082069760786e+02    -5.767652502851296e-02   -1.182117077821791e+02   -5.440743893316061e-02   -1.182300032166419e+02   -1.772447437720632e+01   -1.653309793680538e+02   
1.140000000000000e+08    -1.845622041634844e+01   1.036339658012148e+02    -6.018221264712176e-02   -1.192529489298513e+02   -5.798060262980908e-02   -1.192633479657878e+02   -1.766580498982920e+01   -1.663111171485603e+02   
1.150000000000000e+08    -1.837226389372710e+01   1.022295069278856e+02    -6.403920412834636e-02   -1.202937510188999e+02   -6.001669357366370e-02   -1.203057884598361e+02   -1.762090442767995e+01   -1.672389026604612e+02   
1.160000000000000e+08    -1.829401839541336e+01   1.009760616317872e+02    -6.556821714619787e-02   -1.213368291076854e+02   -6.089631701547819e-02   -1.213650632396926e+02   -1.755112154365833e+01   -1.681376910449676e+02   
1.170000000000000e+08    -1.822130395923108e+01   9.973535526131812e+01    -6.728474573510489e-02   -1.223954785036165e+02   -6.421311801460186e-02   -1.224111944099413e+02   -1.751006249446676e+01   -1.690367748149379e+02   
1.180000000000000e+08    -1.816274571630512e+01   9.855430941986552e+01    -7.036483829932502e-02   -1.234192971426681e+02   -6.475079552268906e-02   -1.234423863816233e+02   -1.744669697055311e+01   -1.698986093845080e+02   
1.190000000000000e+08    -1.807224579339684e+01   9.711731622779006e+01    -7.045666330640719e-02   -1.244737792541067e+02   -6.795623864635189e-02   -1.244871487554355e+02   -1.740514484376705e+01   -1.708024627343559e+02   
1.200000000000000e+08    -1.802431422414761e+01   9.576026372664050e+01    -7.509417783981263e-02   -1.255250306339360e+02   -6.919720306925520e-02   -1.255322723748838e+02   -1.737378705866012e+01   -1.717975946936304e+02   
1.210000000000000e+08    -1.796463090049908e+01   9.458325640791580e+01    -7.691459081081460e-02   -1.265653981921077e+02   -7.045092092694291e-02   -1.265892322238844e+02   -1.732671834098444e+01   -1.726783785897869e+02   
1.220000000000000e+08    -1.789574792523267e+01   9.342642416027100e+01    -7.783670852897692e-02   -1.276034128167570e+02   -7.069704626331946e-02   -1.276342227118645e+02   -1.727415189855537e+01   -1.736121198160195e+02   
1.230000000000000e+08    -1.785796853906631e+01   9.215046949357568e+01    -7.954295332293698e-02   -1.286438189550890e+02   -7.587449306351626e-02   -1.286691651584856e+02   -1.723976119168319e+01   -1.744681376580485e+02   
1.240000000000000e+08    -1.777944493651655e+01   9.077348236084755e+01    -8.237509814318437e-02   -1.296933229673986e+02   -7.711850940410031e-02   -1.297240721457646e+02   -1.721299932869742e+01   -1.753666691071406e+02   
1.250000000000000e+08    -1.771492581949859e+01   8.954142259515534e+01    -8.272748958899241e-02   -1.307357037327177e+02   -7.761931479710663e-02   -1.307473161376330e+02   -1.716365025969196e+01   -1.763931485098401e+02   
1.260000000000000e+08    -1.768794409976813e+01   8.823548531269130e+01    -8.713088671125252e-02   -1.317997958443519e+02   -7.893728130608445e-02   -1.318193731768959e+02   -1.713524286642761e+01   -1.772634097039738e+02   
1.270000000000000e+08    -1.760566625075585e+01   8.706194041038241e+01    -8.800875099055355e-02   -1.328385002422759e+02   -8.259941776537624e-02   -1.328565743660355e+02   -1.710449123553851e+01   -1.782160161993726e+02   
1.280000000000000e+08    -1.756585395117513e+01   8.578873018063717e+01    -8.924108936875458e-02   -1.338801057494708e+02   -8.550779786144240e-02   -1.339061555004103e+02   -1.706341213678461e+01   -1.791254798986797e+02   
1.290000000000000e+08    -1.751637096067332e+01   8.453289737497005e+01    -9.163663821440550e-02   -1.349339360174554e+02   -8.853921037571968e-02   -1.349585748994943e+02   -1.702929696345650e+01   1.799671628206139e+02    
1.300000000000000e+08    -1.746529871011735e+01   8.336505178197076e+01    -9.354097693530176e-02   -1.359759026211593e+02   -8.979455731143308e-02   -1.360154538293149e+02   -1.701602650255858e+01   1.791122887367238e+02    
1.310000000000000e+08    -1.741664214140520e+01   8.210603875318630e+01    -9.756533342983933e-02   -1.370407511650208e+02   -9.478316137612736e-02   -1.370520398970238e+02   -1.698387973642452e+01   1.781737750951661e+02    
1.320000000000000e+08    -1.737057426084150e+01   8.098892428432707e+01    -1.010441860759153e-01   -1.380842399338665e+02   -9.731376869742321e-02   -1.381151542755220e+02   -1.697714992916124e+01   1.772948027841843e+02    
1.330000000000000e+08    -1.731410742646947e+01   7.985061340417290e+01    -1.049505271696853e-01   -1.391313969799815e+02   -1.026327408812615e-01   -1.391621047236299e+02   -1.697078777202308e+01   1.765259348563584e+02    
1.340000000000000e+08    -1.725531013835273e+01   7.883299325253549e+01    -1.126309841266884e-01   -1.401694055343200e+02   -1.089571522493064e-01   -1.401824817302617e+02   -1.694571948729578e+01   1.758561832751667e+02    
1.350000000000000e+08    -1.715617216583670e+01   7.747774023764431e+01    -1.129114935809655e-01   -1.411646247920707e+02   -1.110670388515141e-01   -1.411701384559275e+02   -1.685486099381932e+01   1.751076703743416e+02    
1.360000000000000e+08    -1.710703218493103e+01   7.597931741754537e+01    -1.122429928900026e-01   -1.421900635894017e+02   -1.082984768910186e-01   -1.422032081879358e+02   -1.680411737937570e+01   1.741770978561320e+02    
1.370000000000000e+08    -1.707031806410601e+01   7.462209853010660e+01    -1.112452268761798e-01   -1.432125202291051e+02   -1.060382874013339e-01   -1.432532536887737e+02   -1.677502876632328e+01   1.730799068042825e+02    
1.380000000000000e+08    -1.704815771687631e+01   7.318688629336646e+01    -1.100314874812530e-01   -1.442705955877081e+02   -1.069492824221699e-01   -1.442955125905773e+02   -1.674246513378694e+01   1.720700091689809e+02    
1.390000000000000e+08    -1.699792276965335e+01   7.200294702608035e+01    -1.117240343565770e-01   -1.453307799050534e+02   -1.066781268543374e-01   -1.453549761801402e+02   -1.672456443496377e+01   1.710997933134652e+02    
1.400000000000000e+08    -1.697882428015088e+01   7.066631603325226e+01    -1.119951332645680e-01   -1.463816797073313e+02   -1.078520608949571e-01   -1.464157423522275e+02   -1.671494243359933e+01   1.701452126078258e+02    
1.410000000000000e+08    -1.693589564902699e+01   6.946684075857620e+01    -1.145559897828319e-01   -1.474211987611988e+02   -1.075681886997434e-01   -1.474569601837244e+02   -1.670543663127735e+01   1.691505738498077e+02    
1.420000000000000e+08    -1.691582334749658e+01   6.828997436433072e+01    -1.155562699255611e-01   -1.484796123611433e+02   -1.122277172734078e-01   -1.485038639464031e+02   -1.668168772283742e+01   1.681538334233106e+02    
1.430000000000000e+08    -1.688247991005682e+01   6.693387651667942e+01    -1.149453975421053e-01   -1.495302585144215e+02   -1.117886385452488e-01   -1.495461046253797e+02   -1.666899590416770e+01   1.672427737588738e+02    
1.440000000000000e+08    -1.686251562372370e+01   6.564274630109082e+01    -1.163668922339117e-01   -1.505916733220500e+02   -1.114309533155357e-01   -1.506070580216069e+02   -1.666276420404869e+01   1.663183189518920e+02    
1.450000000000000e+08    -1.683478035243029e+01   6.444650600675098e+01    -1.158736033003913e-01   -1.516326730769434e+02   -1.121426487822774e-01   -1.516574198741468e+02   -1.665112146876488e+01   1.654281152808827e+02    
1.460000000000000e+08    -1.680626607243875e+01   6.322229139862466e+01    -1.159693663286281e-01   -1.526821404124938e+02   -1.131681668578235e-01   -1.527183870822857e+02   -1.664356648673042e+01   1.644786487511487e+02    
1.470000000000000e+08    -1.678163284260661e+01   6.194308091816259e+01    -1.194681740676467e-01   -1.537256552165815e+02   -1.159583045501667e-01   -1.537551234542015e+02   -1.663542271762615e+01   1.635172661806600e+02    
1.480000000000000e+08    -1.676629102318632e+01   6.077011840985422e+01    -1.219514533451903e-01   -1.547809265451757e+02   -1.157017029173364e-01   -1.547918011842282e+02   -1.662786994747602e+01   1.626388635297754e+02    
1.490000000000000e+08    -1.674263921119351e+01   5.943762497264024e+01    -1.211953463666796e-01   -1.558283053622240e+02   -1.166214132578420e-01   -1.558555181647512e+02   -1.663305484072720e+01   1.617067368134354e+02    
1.500000000000000e+08    -1.672867095547742e+01   5.825941964385741e+01    -1.219896947608427e-01   -1.568854053969050e+02   -1.169776137968236e-01   -1.569058452260511e+02   -1.661989061375860e+01   1.607437889996027e+02    
1.510000000000000e+08    -1.670796345692385e+01   5.699465522835266e+01    -1.231238340802719e-01   -1.579377548676604e+02   -1.188624477743626e-01   -1.579615315184972e+02   -1.663059406939272e+01   1.598038120547361e+02    
1.520000000000000e+08    -1.667739820526649e+01   5.577400642309503e+01    -1.248565358739529e-01   -1.589917235708375e+02   -1.190352684861692e-01   -1.590105468952252e+02   -1.662763131138630e+01   1.589429987307446e+02    
1.530000000000000e+08    -1.666485259610758e+01   5.458885873732176e+01    -1.272571009499635e-01   -1.600239442326590e+02   -1.211034448617955e-01   -1.600506602050712e+02   -1.662883268173842e+01   1.580558700156891e+02    
1.540000000000000e+08    -1.665671690883004e+01   5.331721092878324e+01    -1.246400323263525e-01   -1.610811566252507e+02   -1.214012382136360e-01   -1.611205591991734e+02   -1.663932795616870e+01   1.570942637952864e+02    
1.550000000000000e+08    -1.664152208847502e+01   5.201987954162185e+01    -1.281664967757165e-01   -1.621480728745858e+02   -1.222964960390435e-01   -1.621646757680061e+02   -1.664113938294728e+01   1.561492129334594e+02    
1.560000000000000e+08    -1.664005300753668e+01   5.078752644141044e+01    -1.262716506207546e-01   -1.632014362072313e+02   -1.249907089250384e-01   -1.632280784685871e+02   -1.665222239170161e+01   1.551720351686062e+02    
1.570000000000000e+08    -1.662185676930416e+01   4.959860126957791e+01    -1.293086525715569e-01   -1.642585634812332e+02   -1.255106955771805e-01   -1.642813517034276e+02   -1.665810772050520e+01   1.543123614428466e+02    
1.580000000000000e+08    -1.660713847194195e+01   4.834220242604619e+01    -1.279908081622877e-01   -1.653060499142782e+02   -1.244416842914229e-01   -1.653229950592985e+02   -1.666472608120706e+01   1.534101027964349e+02    
1.590000000000000e+08    -1.661572659832095e+01   4.709992226220544e+01    -1.298678937321885e-01   -1.663520049759264e+02   -1.264364613326052e-01   -1.663743243052252e+02   -1.667183485936065e+01   1.524617297042893e+02    
1.600000000000000e+08    -1.660879735438040e+01   4.582294614025566e+01    -1.301767086313971e-01   -1.674224285180998e+02   -1.251479771775296e-01   -1.674346011326004e+02   -1.668738613722823e+01   1.515262184243880e+02    
1.610000000000000e+08    -1.660184550525166e+01   4.468573835925693e+01    -1.332413273234610e-01   -1.684588594880339e+02   -1.257782510518073e-01   -1.684902578410065e+02   -1.671037153974558e+01   1.506394577082082e+02    
1.620000000000000e+08    -1.660056676732692e+01   4.344650475466525e+01    -1.325778345773118e-01   -1.695072536556037e+02   -1.275345243420459e-01   -1.695355658002914e+02   -1.671403011720184e+01   1.497123272096801e+02    
1.630000000000000e+08    -1.659833295191326e+01   4.222442272538989e+01    -1.331181950948454e-01   -1.705710063653243e+02   -1.277168722436187e-01   -1.706073257312365e+02   -1.674861779123690e+01   1.488214654037322e+02    
1.640000000000000e+08    -1.661474136422609e+01   4.091341849626819e+01    -1.328361692585298e-01   -1.716292974634757e+02   -1.292339716339838e-01   -1.716611365683032e+02   -1.676478381618449e+01   1.478609988107685e+02    
1.650000000000000e+08    -1.662212906936505e+01   3.972233254462681e+01    -1.347569086200929e-01   -1.726864404486482e+02   -1.298006586411964e-01   -1.727111890132956e+02   -1.678730635000197e+01   1.470114177054147e+02    
1.660000000000000e+08    -1.661315876951851e+01   3.847235791368066e+01    -1.333245115081851e-01   -1.737416448329097e+02   -1.291492806516158e-01   -1.737657632664537e+02   -1.681266336138717e+01   1.460505979479075e+02    
1.670000000000000e+08    -1.662818661206719e+01   3.726212091228389e+01    -1.364665543504926e-01   -1.747877498698848e+02   -1.294517534531623e-01   -1.748305269076084e+02   -1.682422975701233e+01   1.450933005958464e+02    
1.680000000000000e+08    -1.663463927391119e+01   3.597007266109887e+01    -1.335879715899559e-01   -1.758628574367452e+02   -1.323229079623239e-01   -1.758843671853348e+02   -1.686616512757114e+01   1.442328342264611e+02    
1.690000000000000e+08    -1.665243077455429e+01   3.478209894056374e+01    -1.352126693591447e-01   -1.769196399307511e+02   -1.309976351567547e-01   -1.769403671752273e+02   -1.689158370145507e+01   1.432449552411543e+02    
1.700000000000000e+08    -1.666366942194959e+01   3.350527492933077e+01    -1.359530806679688e-01   -1.779672007012407e+02   -1.308344948879681e-01   -1.780048225201633e+02   -1.692501411720041e+01   1.423295475480757e+02    
1.710000000000000e+08    -1.668302616512483e+01   3.229450441062949e+01    -1.360201683684918e-01   -1.790254323270763e+02   -1.354246124813182e-01   -1.790704236625565e+02   -1.696042439271243e+01   1.414628754379503e+02    
1.720000000000000e+08    -1.669401245245158e+01   3.115249398063479e+01    -1.361874549425034e-01   1.799117784675560e+02    -1.320698621492094e-01   1.798739659503642e+02    -1.699460957953804e+01   1.405326929188357e+02    
1.730000000000000e+08    -1.671465266934532e+01   2.979702765816511e+01    -1.365892792997160e-01   1.788629703369486e+02    -1.320706763282984e-01   1.788089517438360e+02    -1.703523881669724e+01   1.396501112877674e+02    
1.740000000000000e+08    -1.674248726772453e+01   2.850819749621190e+01    -1.365690612127107e-01   1.777970667001434e+02    -1.345295359129619e-01   1.777456584987115e+02    -1.707082581080839e+01   1.387154074596272e+02    
1.750000000000000e+08    -1.676435080825393e+01   2.728494034400355e+01    -1.354971258229028e-01   1.767260205444703e+02    -1.349052499173289e-01   1.766841574395964e+02    -1.711367021058113e+01   1.377804192334575e+02    
1.760000000000000e+08    -1.679261204644988e+01   2.604691268191857e+01    -1.365513901045673e-01   1.756586025418907e+02    -1.330324977665079e-01   1.756236050146250e+02    -1.715121262512285e+01   1.368866926713462e+02    
1.770000000000000e+08    -1.680552349983703e+01   2.486996513601014e+01    -1.376171759308625e-01   1.745913748479473e+02    -1.304477262896684e-01   1.745737415554186e+02    -1.720082126088222e+01   1.360125552809673e+02    
1.780000000000000e+08    -1.684769968759396e+01   2.363313326906818e+01    -1.347027448633721e-01   1.735340638862466e+02    -1.359567519854421e-01   1.735036646708299e+02    -1.725237994647647e+01   1.350877766138049e+02    
1.790000000000000e+08    -1.688274808278186e+01   2.228237047677422e+01    -1.397106059206505e-01   1.724677595189025e+02    -1.342618902707987e-01   1.724467880043117e+02    -1.730768024363714e+01   1.341472582728779e+02    
1.800000000000000e+08    -1.690893665112371e+01   2.105282267058693e+01    -1.391449674165336e-01   1.714022456473240e+02    -1.339639828799253e-01   1.713727048503211e+02    -1.735370186063136e+01   1.332432056100245e+02    
1.810000000000000e+08    -1.694099330089928e+01   1.985425490877773e+01    -1.378965755128506e-01   1.703291782626740e+02    -1.341808335733600e-01   1.702919444997385e+02    -1.740673361284558e+01   1.323967720375106e+02    
1.820000000000000e+08    -1.698267840252159e+01   1.855459641724771e+01    -1.372801156402129e-01   1.692734115191596e+02    -1.347168331407011e-01   1.692425873319885e+02    -1.746154546407203e+01   1.314283408893792e+02    
1.830000000000000e+08    -1.702045768282330e+01   1.732529501819953e+01    -1.349525388305423e-01   1.682184638486338e+02    -1.332461973622621e-01   1.681602425278168e+02    -1.752121239098016e+01   1.305632654986522e+02    
1.840000000000000e+08    -1.707117102449067e+01   1.604852013113288e+01    -1.361873993235631e-01   1.671284036438675e+02    -1.332791892929691e-01   1.671024218503182e+02    -1.758598142442129e+01   1.296658559828573e+02    
1.850000000000000e+08    -1.711774224085116e+01   1.482509869296562e+01    -1.378228002773811e-01   1.660743548317998e+02    -1.336720395226171e-01   1.660255229971656e+02    -1.765958982439336e+01   1.287235698226844e+02    
